 time            vin             i(v1)          
 2.00000000e-05  6.28318529e-04 -5.36725370e-07 
 4.00000000e-05  1.25663705e-03 -1.07345073e-06 
 8.00000000e-05  2.51327402e-03 -2.14690140e-06 
 1.60000000e-04  5.02654740e-03 -4.29380225e-06 
 3.20000000e-04  1.00530897e-02 -8.58760017e-06 
 6.40000000e-04  2.01061388e-02 -1.71751656e-05 
 1.28000000e-03  4.02119525e-02 -3.43500535e-05 
 2.00000000e-03  6.28301994e-02 -5.36711247e-05 
 2.12800000e-03  6.68510998e-02 -5.71058779e-05 
 2.38400000e-03  7.48927681e-02 -6.39752718e-05 
 2.89600000e-03  9.09755027e-02 -7.77135451e-05 
 3.92000000e-03  1.23137981e-01 -1.05187537e-04 
 5.92000000e-03  1.85939401e-01 -1.58834077e-04 
 7.92000000e-03  2.48711460e-01 -2.12455536e-04 
 9.92000000e-03  3.11444243e-01 -2.66043446e-04 
 1.19200000e-02  3.74127847e-01 -3.19589344e-04 
 1.39200000e-02  4.36752371e-01 -3.73084775e-04 
 1.59200000e-02  4.99307926e-01 -4.26521294e-04 
 1.79200000e-02  5.61784636e-01 -4.79890457e-04 
 1.99200000e-02  6.24172633e-01 -5.33183842e-04 
 2.19200000e-02  6.86462065e-01 -5.86393030e-04 
 2.39200000e-02  7.48643098e-01 -6.39513795e-04 
 2.59200000e-02  8.10705911e-01 -6.92558152e-04 
 2.79200000e-02  8.72640704e-01 -7.45542215e-04 
 2.99200000e-02  9.34437698e-01 -7.98359964e-04 
 3.19200000e-02  9.96087132e-01 -8.51157778e-04 
 3.39200000e-02  1.05757927e+00 -9.04002158e-04 
 3.59200000e-02  1.11890441e+00 -9.56981322e-04 
 3.79200000e-02  1.18005286e+00 -1.01028111e-03 
 3.99200000e-02  1.24101496e+00 -1.06422949e-03 
 4.19200000e-02  1.30178110e+00 -1.11923784e-03 
 4.39200000e-02  1.36234167e+00 -1.17657884e-03 
 4.59200000e-02  1.42268710e+00 -1.23555730e-03 
 4.79200000e-02  1.48280788e+00 -1.29757696e-03 
 4.99200000e-02  1.54269451e+00 -1.36376548e-03 
 5.19200000e-02  1.60233753e+00 -1.43569462e-03 
 5.39200000e-02  1.66172752e+00 -1.51563110e-03 
 5.59200000e-02  1.72085510e+00 -1.60699032e-03 
 5.79200000e-02  1.77971094e+00 -1.71521649e-03 
 5.99200000e-02  1.83828575e+00 -1.84965343e-03 
 6.19200000e-02  1.89657027e+00 -2.02801788e-03 
 6.39200000e-02  1.95455529e+00 -2.28910627e-03 
 6.59200000e-02  2.01223167e+00 -2.73943912e-03 
 6.61700000e-02  2.01941906e+00 -2.82230114e-03 
 6.66700000e-02  2.03377888e+00 -3.01808265e-03 
 6.76700000e-02  2.06243816e+00 -3.60870256e-03 
 6.92061875e-02  2.10630517e+00 -4.50574146e-03 
 7.07138239e-02  2.14916612e+00 -4.63636600e-03 
 7.23246165e-02  2.19474653e+00 -4.78985465e-03 
 7.40488529e-02  2.24328781e+00 -4.97560922e-03 
 7.60488529e-02  2.29926227e+00 -5.22780583e-03 
 7.80488529e-02  2.35487365e+00 -5.44729226e-03 
 8.00488529e-02  2.41011318e+00 -5.59257449e-03 
 8.20488529e-02  2.46497211e+00 -5.74289648e-03 
 8.40488529e-02  2.51944180e+00 -5.89956496e-03 
 8.60488529e-02  2.57351364e+00 -6.06424341e-03 
 8.80488529e-02  2.62717910e+00 -6.23908994e-03 
 9.00488529e-02  2.68042969e+00 -6.42694984e-03 
 9.20488529e-02  2.73325701e+00 -6.63167446e-03 
 9.40488529e-02  2.78565272e+00 -6.85865005e-03 
 9.60488529e-02  2.83760854e+00 -7.11568678e-03 
 9.80488529e-02  2.88911627e+00 -7.41461701e-03 
 1.00048853e-01  2.94016777e+00 -7.77436545e-03 
 1.02048853e-01  2.99075499e+00 -8.22735703e-03 
 1.04048853e-01  3.04086993e+00 -8.83443985e-03 
 1.06048853e-01  3.09050468e+00 -9.72527874e-03 
 1.06298853e-01  3.09667487e+00 -9.86915438e-03 
 1.06798853e-01  3.10899232e+00 -1.01875494e-02 
 1.07798853e-01  3.13353503e+00 -1.09161496e-02 
 1.07993778e-01  3.13830465e+00 -1.10710481e-02 
 1.08383629e-01  3.14782977e+00 -1.14166416e-02 
 1.09163332e-01  3.16682328e+00 -1.21669398e-02 
 1.10559503e-01  3.20064377e+00 -1.31104182e-02 
 1.12160865e-01  3.23913132e+00 -1.33971857e-02 
 1.14160865e-01  3.28673887e+00 -1.35987037e-02 
 1.16099150e-01  3.33238221e+00 -1.37936923e-02 
 1.18099150e-01  3.37896066e+00 -1.39945227e-02 
 1.20099150e-01  3.42500552e+00 -1.41949020e-02 
 1.22099150e-01  3.47050954e+00 -1.43947086e-02 
 1.24099150e-01  3.51546552e+00 -1.45937824e-02 
 1.26099150e-01  3.55986637e+00 -1.47919365e-02 
 1.28099150e-01  3.60370508e+00 -1.49889590e-02 
 1.30099150e-01  3.64697472e+00 -1.51846171e-02 
 1.32099150e-01  3.68966846e+00 -1.53786654e-02 
 1.34099150e-01  3.73177956e+00 -1.55708567e-02 
 1.36099150e-01  3.77330136e+00 -1.57609538e-02 
 1.38099150e-01  3.81422732e+00 -1.59487420e-02 
 1.40099150e-01  3.85455097e+00 -1.61340399e-02 
 1.42099150e-01  3.89426594e+00 -1.63167079e-02 
 1.44099150e-01  3.93336596e+00 -1.64956254e-02 
 1.46099150e-01  3.97184486e+00 -1.66729286e-02 
 1.48099150e-01  4.00969655e+00 -1.68474374e-02 
 1.50099150e-01  4.04691507e+00 -1.70192476e-02 
 1.52099150e-01  4.08349454e+00 -1.71884816e-02 
 1.54099150e-01  4.11942917e+00 -1.73553139e-02 
 1.56099150e-01  4.15471330e+00 -1.75211415e-02 
 1.58099150e-01  4.18934134e+00 -1.76839427e-02 
 1.60099150e-01  4.22330785e+00 -1.78451942e-02 
 1.62099150e-01  4.25660744e+00 -1.80052722e-02 
 1.64099150e-01  4.28923487e+00 -1.81646117e-02 
 1.66099150e-01  4.32118498e+00 -1.83237141e-02 
 1.68099150e-01  4.35245272e+00 -1.84831597e-02 
 1.70099150e-01  4.38303316e+00 -1.86436232e-02 
 1.72099150e-01  4.41292147e+00 -1.88059067e-02 
 1.74099150e-01  4.44211292e+00 -1.89709610e-02 
 1.76099150e-01  4.47060292e+00 -1.91398999e-02 
 1.78099150e-01  4.49838695e+00 -1.93140483e-02 
 1.80099150e-01  4.52546064e+00 -1.94950020e-02 
 1.80130400e-01  4.52587801e+00 -1.94978934e-02 
 1.80192900e-01  4.52671222e+00 -1.95036758e-02 
 1.80208525e-01  4.52692066e+00 -1.95051168e-02 
 1.80239775e-01  4.52733742e+00 -1.95080288e-02 
 1.80247587e-01  4.52744158e+00 -1.95087520e-02 
 1.80263212e-01  4.52764987e+00 -1.95102058e-02 
 1.80294462e-01  4.52806632e+00 -1.95131072e-02 
 1.80356962e-01  4.52889870e+00 -1.95184635e-02 
 1.80481962e-01  4.53056136e+00 -1.95282767e-02 
 1.80731962e-01  4.53387830e+00 -1.95478978e-02 
 1.81231962e-01  4.54047860e+00 -1.95871341e-02 
 1.81356962e-01  4.54212168e+00 -1.95972418e-02 
 1.81388212e-01  4.54253201e+00 -1.95996695e-02 
 1.81450712e-01  4.54335214e+00 -1.96046621e-02 
 1.81575712e-01  4.54499032e+00 -1.96145381e-02 
 1.81606962e-01  4.54539942e+00 -1.96169973e-02 
 1.81669462e-01  4.54621711e+00 -1.96220131e-02 
 1.81685087e-01  4.54642142e+00 -1.96232505e-02 
 1.81716337e-01  4.54682991e+00 -1.96257496e-02 
 1.81778837e-01  4.54764637e+00 -1.96306496e-02 
 1.81903837e-01  4.54927718e+00 -1.96402737e-02 
 1.82153837e-01  4.55253038e+00 -1.96595060e-02 
 1.82653837e-01  4.55900308e+00 -1.96978787e-02 
 1.83653837e-01  4.57181343e+00 -1.97750677e-02 
 1.85653837e-01  4.59689216e+00 -1.99284056e-02 
 1.87653837e-01  4.62124499e+00 -2.00802733e-02 
 1.89653837e-01  4.64486808e+00 -2.02295289e-02 
 1.89903837e-01  4.64776946e+00 -2.02478735e-02 
 1.90403837e-01  4.65353783e+00 -2.02842768e-02 
 1.90528837e-01  4.65497275e+00 -2.02932273e-02 
 1.90778837e-01  4.65783396e+00 -2.03116789e-02 
 1.91278837e-01  4.66352192e+00 -2.03455875e-02 
 1.92278837e-01  4.67475969e+00 -2.04077429e-02 
 1.94278837e-01  4.69668113e+00 -2.05297325e-02 
 1.96278837e-01  4.71786092e+00 -2.06465956e-02 
 1.98278837e-01  4.73829570e+00 -2.07583797e-02 
 2.00278837e-01  4.75798225e+00 -2.08648544e-02 
 2.02278837e-01  4.77691746e+00 -2.09652395e-02 
 2.04278837e-01  4.79509834e+00 -2.10609916e-02 
 2.04528837e-01  4.79731777e+00 -2.10726889e-02 
 2.05028837e-01  4.80172110e+00 -2.10958646e-02 
 2.05153837e-01  4.80281453e+00 -2.11014455e-02 
 2.05403837e-01  4.80499251e+00 -2.11127756e-02 
 2.05903837e-01  4.80931288e+00 -2.11350209e-02 
 2.06903837e-01  4.81781119e+00 -2.11782236e-02 
 2.08903837e-01  4.83423688e+00 -2.12595774e-02 
 2.10903837e-01  4.84989920e+00 -2.13363120e-02 
 2.12903837e-01  4.86479565e+00 -2.14081067e-02 
 2.14903837e-01  4.87892390e+00 -2.14759431e-02 
 2.16903837e-01  4.89228171e+00 -2.15397844e-02 
 2.18903837e-01  4.90486697e+00 -2.15993633e-02 
 2.19153837e-01  4.90638571e+00 -2.16067640e-02 
 2.19653837e-01  4.90938686e+00 -2.16209083e-02 
 2.20653837e-01  4.91524378e+00 -2.16480194e-02 
 2.20903837e-01  4.91667770e+00 -2.16543409e-02 
 2.21403837e-01  4.91950914e+00 -2.16673586e-02 
 2.22403837e-01  4.92502633e+00 -2.16922922e-02 
 2.24403837e-01  4.93547720e+00 -2.17385042e-02 
 2.26403837e-01  4.94514871e+00 -2.17803800e-02 
 2.28403837e-01  4.95403932e+00 -2.18193944e-02 
 2.30403837e-01  4.96214763e+00 -2.18554468e-02 
 2.32403837e-01  4.96947236e+00 -2.18887062e-02 
 2.34403837e-01  4.97601235e+00 -2.19193897e-02 
 2.36403837e-01  4.98176657e+00 -2.19477745e-02 
 2.38403837e-01  4.98673412e+00 -2.19742206e-02 
 2.40403837e-01  4.99091420e+00 -2.19992008e-02 
 2.42403837e-01  4.99430615e+00 -2.20233463e-02 
 2.44403837e-01  4.99690945e+00 -2.20494502e-02 
 2.46403837e-01  4.99872368e+00 -2.20754969e-02 
 2.48403837e-01  4.99974855e+00 -2.21045961e-02 
 2.50403837e-01  4.99998390e+00 -2.21390663e-02 
 2.50653837e-01  4.99995781e+00 -2.21417343e-02 
 2.51153837e-01  4.99986860e+00 -2.21535827e-02 
 2.52153837e-01  4.99954215e+00 -2.21742021e-02 
 2.54153837e-01  4.99829716e+00 -2.22095767e-02 
 2.54403837e-01  4.99808603e+00 -2.22109059e-02 
 2.54903837e-01  4.99762678e+00 -2.22148938e-02 
 2.55028837e-01  4.99750426e+00 -2.22156764e-02 
 2.55278837e-01  4.99724998e+00 -2.22174000e-02 
 2.55341337e-01  4.99718448e+00 -2.22177786e-02 
 2.55466337e-01  4.99705117e+00 -2.22185740e-02 
 2.55716337e-01  4.99677530e+00 -2.22192634e-02 
 2.56216337e-01  4.99618659e+00 -2.22187709e-02 
 2.57216337e-01  4.99486123e+00 -2.22167808e-02 
 2.59216337e-01  4.99161901e+00 -2.22088326e-02 
 2.61216337e-01  4.98758856e+00 -2.21959285e-02 
 2.63216337e-01  4.98277051e+00 -2.21779779e-02 
 2.65216337e-01  4.97716562e+00 -2.21552019e-02 
 2.65466337e-01  4.97640973e+00 -2.21520467e-02 
 2.65966337e-01  4.97486111e+00 -2.21455107e-02 
 2.66091337e-01  4.97446628e+00 -2.21438135e-02 
 2.66341337e-01  4.97366742e+00 -2.21403940e-02 
 2.66403837e-01  4.97346579e+00 -2.21395234e-02 
 2.66528837e-01  4.97306022e+00 -2.21377762e-02 
 2.66778837e-01  4.97223989e+00 -2.21342241e-02 
 2.67278837e-01  4.97056242e+00 -2.21269638e-02 
 2.68278837e-01  4.96706031e+00 -2.21117242e-02 
 2.70278837e-01  4.95946798e+00 -2.20780359e-02 
 2.72278837e-01  4.95109249e+00 -2.20402401e-02 
 2.74278837e-01  4.94193517e+00 -2.19984449e-02 
 2.76278837e-01  4.93199746e+00 -2.19527752e-02 
 2.78278837e-01  4.92128093e+00 -2.19033347e-02 
 2.80278837e-01  4.90978727e+00 -2.18501779e-02 
 2.82278837e-01  4.89751830e+00 -2.17933162e-02 
 2.82528837e-01  4.89593026e+00 -2.17859762e-02 
 2.83028837e-01  4.89271794e+00 -2.17711369e-02 
 2.84028837e-01  4.88614847e+00 -2.17407567e-02 
 2.86028837e-01  4.87243110e+00 -2.16775278e-02 
 2.88028837e-01  4.85794433e+00 -2.16109632e-02 
 2.90028837e-01  4.84269042e+00 -2.15410827e-02 
 2.92028837e-01  4.82667180e+00 -2.14678656e-02 
 2.94028837e-01  4.80989100e+00 -2.13913222e-02 
 2.96028837e-01  4.79235065e+00 -2.13114636e-02 
 2.98028837e-01  4.77405354e+00 -2.12283013e-02 
 3.00028837e-01  4.75500255e+00 -2.11418473e-02 
 3.02028837e-01  4.73520069e+00 -2.10521143e-02 
 3.04028837e-01  4.71465108e+00 -2.09591154e-02 
 3.06028837e-01  4.69335698e+00 -2.08628635e-02 
 3.08028837e-01  4.67132174e+00 -2.07633723e-02 
 3.10028837e-01  4.64854885e+00 -2.06606568e-02 
 3.12028837e-01  4.62504190e+00 -2.05547321e-02 
 3.14028837e-01  4.60080459e+00 -2.04456140e-02 
 3.16028837e-01  4.57584077e+00 -2.03333188e-02 
 3.18028837e-01  4.55015437e+00 -2.02178630e-02 
 3.20028837e-01  4.52374945e+00 -2.00992642e-02 
 3.22028837e-01  4.49663018e+00 -1.99775396e-02 
 3.24028837e-01  4.46880083e+00 -1.98527075e-02 
 3.26028837e-01  4.44026581e+00 -1.97247867e-02 
 3.28028837e-01  4.41102962e+00 -1.95937965e-02 
 3.30028837e-01  4.38109688e+00 -1.94597567e-02 
 3.32028837e-01  4.35047231e+00 -1.93226876e-02 
 3.34028837e-01  4.31916075e+00 -1.91826100e-02 
 3.34278837e-01  4.31519875e+00 -1.91648942e-02 
 3.34778837e-01  4.30724281e+00 -1.91293238e-02 
 3.34903837e-01  4.30524718e+00 -1.91203978e-02 
 3.35153837e-01  4.30124796e+00 -1.91025170e-02 
 3.35653837e-01  4.29321767e+00 -1.90666104e-02 
 3.36653837e-01  4.27703007e+00 -1.89942522e-02 
 3.38653837e-01  4.24414897e+00 -1.88473394e-02 
 3.40653837e-01  4.21059766e+00 -1.86974988e-02 
 3.42653837e-01  4.17638146e+00 -1.85447428e-02 
 3.44653837e-01  4.14150575e+00 -1.83890948e-02 
 3.46653837e-01  4.10597605e+00 -1.82305785e-02 
 3.48653837e-01  4.06979797e+00 -1.80692183e-02 
 3.50653837e-01  4.03297723e+00 -1.79050388e-02 
 3.52653837e-01  3.99551963e+00 -1.77380653e-02 
 3.54653837e-01  3.95743109e+00 -1.75683235e-02 
 3.56653837e-01  3.91871762e+00 -1.73958394e-02 
 3.58653837e-01  3.87938535e+00 -1.72206395e-02 
 3.60653837e-01  3.83944047e+00 -1.70427508e-02 
 3.62653837e-01  3.79888930e+00 -1.68622008e-02 
 3.64653837e-01  3.75773825e+00 -1.66790172e-02 
 3.66653837e-01  3.71599380e+00 -1.64932283e-02 
 3.68653837e-01  3.67366256e+00 -1.63048629e-02 
 3.70653837e-01  3.63075120e+00 -1.61139499e-02 
 3.72653837e-01  3.58726650e+00 -1.59205189e-02 
 3.74653837e-01  3.54321534e+00 -1.57245998e-02 
 3.76653837e-01  3.49860465e+00 -1.55262229e-02 
 3.78653837e-01  3.45344150e+00 -1.53254186e-02 
 3.80653837e-01  3.40773301e+00 -1.51222179e-02 
 3.82653837e-01  3.36148640e+00 -1.49166524e-02 
 3.84653837e-01  3.31470897e+00 -1.47087539e-02 
 3.86653837e-01  3.26740811e+00 -1.44985545e-02 
 3.86903837e-01  3.26145907e+00 -1.44721212e-02 
 3.87403837e-01  3.24953686e+00 -1.44191486e-02 
 3.88403837e-01  3.22559635e+00 -1.43127727e-02 
 3.90403837e-01  3.17733425e+00 -1.40983480e-02 
 3.92403837e-01  3.12857042e+00 -1.38817255e-02 
 3.94403837e-01  3.07931255e+00 -1.36629299e-02 
 3.96403837e-01  3.02956842e+00 -1.34419953e-02 
 3.98403837e-01  2.97934588e+00 -1.32189560e-02 
 4.00403837e-01  2.92865287e+00 -1.29938463e-02 
 4.02403837e-01  2.87749739e+00 -1.27667008e-02 
 4.04403837e-01  2.82588753e+00 -1.25375549e-02 
 4.06403837e-01  2.77383142e+00 -1.23064444e-02 
 4.08403837e-01  2.72133729e+00 -1.20734048e-02 
 4.10403837e-01  2.66841343e+00 -1.18384727e-02 
 4.12403837e-01  2.61506820e+00 -1.16016845e-02 
 4.14403837e-01  2.56131002e+00 -1.13630770e-02 
 4.16403837e-01  2.50714738e+00 -1.11226873e-02 
 4.18403837e-01  2.45258883e+00 -1.08805528e-02 
 4.20403837e-01  2.39764299e+00 -1.06367115e-02 
 4.22403837e-01  2.34231853e+00 -1.03912012e-02 
 4.24403837e-01  2.28662419e+00 -1.01440603e-02 
 4.26403837e-01  2.23056877e+00 -9.89532729e-03 
 4.28403837e-01  2.17416112e+00 -9.64504102e-03 
 4.30403837e-01  2.11741014e+00 -9.39323957e-03 
 4.32403837e-01  2.06032480e+00 -9.13996148e-03 
 4.34403837e-01  2.00291411e+00 -8.88524656e-03 
 4.36403837e-01  1.94518713e+00 -8.62913466e-03 
 4.38403837e-01  1.88715299e+00 -8.37166537e-03 
 4.40403837e-01  1.82882084e+00 -8.11287868e-03 
 4.42403837e-01  1.77019991e+00 -7.85281531e-03 
 4.44403837e-01  1.71129943e+00 -7.59151564e-03 
 4.46403837e-01  1.65212873e+00 -7.32902040e-03 
 4.48403837e-01  1.59269713e+00 -7.06537085e-03 
 4.50403837e-01  1.53301403e+00 -6.80060836e-03 
 4.52403837e-01  1.47308884e+00 -6.53477419e-03 
 4.54403837e-01  1.41293104e+00 -6.26790832e-03 
 4.56403837e-01  1.35255012e+00 -6.00005219e-03 
 4.58403837e-01  1.29195562e+00 -5.73124880e-03 
 4.60403837e-01  1.23115710e+00 -5.46154036e-03 
 4.62403837e-01  1.17016417e+00 -5.19096941e-03 
 4.64403837e-01  1.10898646e+00 -4.91957873e-03 
 4.66403837e-01  1.04763362e+00 -4.64741120e-03 
 4.68403837e-01  9.86115351e-01 -4.37450979e-03 
 4.70403837e-01  9.24441363e-01 -4.10091759e-03 
 4.72403837e-01  8.62621394e-01 -3.82667781e-03 
 4.74403837e-01  8.00665208e-01 -3.55183375e-03 
 4.76403837e-01  7.38582588e-01 -3.27642883e-03 
 4.78403837e-01  6.76383336e-01 -3.00050651e-03 
 4.80403837e-01  6.14077276e-01 -2.72411037e-03 
 4.82403837e-01  5.51674246e-01 -2.44728407e-03 
 4.84403837e-01  4.89184101e-01 -2.17007132e-03 
 4.86403837e-01  4.26616707e-01 -1.89251588e-03 
 4.88403837e-01  3.63981946e-01 -1.61466159e-03 
 4.90403837e-01  3.01289707e-01 -1.33655233e-03 
 4.92403837e-01  2.38549892e-01 -1.05823202e-03 
 4.94403837e-01  1.75772407e-01 -7.79744594e-04 
 4.96403837e-01  1.12967165e-01 -5.01134040e-04 
 4.98403837e-01  5.01440846e-02 -2.22444351e-04 
 5.00403837e-01 -1.26869143e-02  5.62804651e-05 
 5.02403837e-01 -7.55159097e-02  3.34996394e-04 
 5.04403837e-01 -1.38332980e-01  6.13659422e-04 
 5.06403837e-01 -2.01128207e-01  8.92225547e-04 
 5.08403837e-01 -2.63891672e-01  1.17065078e-03 
 5.10403837e-01 -3.26613467e-01  1.44889115e-03 
 5.12403837e-01 -3.89283685e-01  1.72690273e-03 
 5.14403837e-01 -4.51892430e-01  2.00464161e-03 
 5.16403837e-01 -5.14429817e-01  2.28206393e-03 
 5.18403837e-01 -5.76885969e-01  2.55912588e-03 
 5.20403837e-01 -6.39251025e-01  2.82445950e-03 
 5.22403837e-01 -7.01515135e-01  3.05694093e-03 
 5.24403837e-01 -7.63668468e-01  3.24517489e-03 
 5.26403837e-01 -8.25701208e-01  3.39244361e-03 
 5.28403837e-01 -8.87603561e-01  3.50931064e-03 
 5.30403837e-01 -9.49365751e-01  3.60684735e-03 
 5.32403837e-01 -1.01097803e+00  3.69435903e-03 
 5.34403837e-01 -1.07243065e+00  3.77418259e-03 
 5.36403837e-01 -1.13371393e+00  3.83843090e-03 
 5.38403837e-01 -1.19481819e+00  3.87924780e-03 
 5.40403837e-01 -1.25573376e+00  3.88839957e-03 
 5.42403837e-01 -1.31645105e+00  3.85818453e-03 
 5.44403837e-01 -1.37696045e+00  3.78967561e-03 
 5.46403837e-01 -1.43725241e+00  3.68860142e-03 
 5.48403837e-01 -1.49731741e+00  3.56325342e-03 
 5.50403837e-01 -1.55714597e+00  3.42282952e-03 
 5.52403837e-01 -1.61672864e+00  3.27589024e-03 
 5.54403837e-01 -1.67605601e+00  3.12938839e-03 
 5.56403837e-01 -1.73511870e+00  2.98724918e-03 
 5.58403837e-01 -1.79390741e+00  2.85068382e-03 
 5.60403837e-01 -1.85241283e+00  2.72003186e-03 
 5.62403837e-01 -1.91062574e+00  2.59515259e-03 
 5.64403837e-01 -1.96853694e+00  2.47568951e-03 
 5.66403837e-01 -2.02613728e+00  2.36150724e-03 
 5.68403837e-01 -2.08341767e+00  2.25286761e-03 
 5.70403837e-01 -2.14036907e+00  2.15034441e-03 
 5.72403837e-01 -2.19698247e+00  2.05458939e-03 
 5.74403837e-01 -2.25324895e+00  1.96610544e-03 
 5.76403837e-01 -2.30915962e+00  1.88512451e-03 
 5.78403837e-01 -2.36470564e+00  1.81159790e-03 
 5.80403837e-01 -2.41987824e+00  1.74525503e-03 
 5.82403837e-01 -2.47466872e+00  1.68568292e-03 
 5.84403837e-01 -2.52906842e+00  1.63239755e-03 
 5.86403837e-01 -2.58306876e+00  1.58489625e-03 
 5.88403837e-01 -2.63666119e+00  1.54269143e-03 
 5.90403837e-01 -2.68983727e+00  1.50532966e-03 
 5.92403837e-01 -2.74258859e+00  1.47240080e-03 
 5.94403837e-01 -2.79490682e+00  1.44354106e-03 
 5.96403837e-01 -2.84678370e+00  1.41843238e-03 
 5.98403837e-01 -2.89821105e+00  1.39680008e-03 
 6.00403837e-01 -2.94918073e+00  1.37840975e-03 
 6.02403837e-01 -2.99968470e+00  1.36306402e-03 
 6.04403837e-01 -3.04971499e+00  1.35059945e-03 
 6.06403837e-01 -3.09926369e+00  1.34088382e-03 
 6.08403837e-01 -3.14832299e+00  1.33381395e-03 
 6.10403837e-01 -3.19688512e+00  1.32931393e-03 
 6.12403837e-01 -3.24494244e+00  1.32733397e-03 
 6.14403837e-01 -3.29248733e+00  1.32784966e-03 
 6.16403837e-01 -3.33951231e+00  1.33086177e-03 
 6.18403837e-01 -3.38600994e+00  1.33639677e-03 
 6.20403837e-01 -3.43197287e+00  1.34450765e-03 
 6.22403837e-01 -3.47739386e+00  1.35527557e-03 
 6.24403837e-01 -3.52226573e+00  1.36881214e-03 
 6.26403837e-01 -3.56658139e+00  1.38526230e-03 
 6.28403837e-01 -3.61033385e+00  1.40480822e-03 
 6.30403837e-01 -3.65351619e+00  1.42767390e-03 
 6.32403837e-01 -3.69612161e+00  1.45413077e-03 
 6.34403837e-01 -3.73814336e+00  1.48450415e-03 
 6.36403837e-01 -3.77957481e+00  1.51917737e-03 
 6.38403837e-01 -3.82040943e+00  1.55859749e-03 
 6.40403837e-01 -3.86064076e+00  1.60328846e-03 
 6.42403837e-01 -3.90026244e+00  1.65365101e-03 
 6.44403837e-01 -3.93926824e+00  1.70879724e-03 
 6.46403837e-01 -3.97765197e+00  1.76645840e-03 
 6.48403837e-01 -4.01540759e+00  1.82325015e-03 
 6.50403837e-01 -4.05252913e+00  1.87370691e-03 
 6.52403837e-01 -4.08901073e+00  1.91099900e-03 
 6.54403837e-01 -4.12484663e+00  1.92967977e-03 
