 time            vin             i(v1)          
 2.00000000e-05  6.28318529e-04 -5.64579849e-08 
 4.00000000e-05  1.25663705e-03 -1.12915967e-07 
 8.00000000e-05  2.51327402e-03 -2.25831926e-07 
 1.60000000e-04  5.02654740e-03 -4.51663792e-07 
 3.20000000e-04  1.00530897e-02 -9.03327138e-07 
 6.40000000e-04  2.01061388e-02 -1.80665061e-06 
 1.28000000e-03  4.02119525e-02 -3.61327200e-06 
 2.00000000e-03  6.28301994e-02 -5.64564992e-06 
 2.12800000e-03  6.68510998e-02 -6.00695060e-06 
 2.38400000e-03  7.48927681e-02 -6.72954028e-06 
 2.89600000e-03  9.09755027e-02 -8.17466515e-06 
 3.92000000e-03  1.23137981e-01 -1.10646464e-05 
 5.92000000e-03  1.85939401e-01 -1.67077100e-05 
 7.92000000e-03  2.48711460e-01 -2.23481359e-05 
 9.92000000e-03  3.11444243e-01 -2.79850325e-05 
 1.19200000e-02  3.74127847e-01 -3.36175093e-05 
 1.39200000e-02  4.36752371e-01 -3.92446792e-05 
 1.59200000e-02  4.99307926e-01 -4.48656507e-05 
 1.79200000e-02  5.61784636e-01 -5.04795374e-05 
 1.99200000e-02  6.24172633e-01 -5.60854542e-05 
 2.19200000e-02  6.86462065e-01 -6.16825107e-05 
 2.39200000e-02  7.48643098e-01 -6.72698308e-05 
 2.59200000e-02  8.10705911e-01 -7.28465270e-05 
 2.79200000e-02  8.72640704e-01 -7.84117212e-05 
 2.99200000e-02  9.34437698e-01 -8.39645284e-05 
 3.19200000e-02  9.96087132e-01 -8.95040800e-05 
 3.39200000e-02  1.05757927e+00 -9.50295001e-05 
 3.59200000e-02  1.11890441e+00 -1.00539909e-04 
 3.79200000e-02  1.18005286e+00 -1.06034446e-04 
 3.99200000e-02  1.24101496e+00 -1.11512236e-04 
 4.19200000e-02  1.30178110e+00 -1.16972415e-04 
 4.39200000e-02  1.36234167e+00 -1.22414130e-04 
 4.59200000e-02  1.42268710e+00 -1.27836505e-04 
 4.79200000e-02  1.48280788e+00 -1.33238704e-04 
 4.99200000e-02  1.54269451e+00 -1.38619854e-04 
 5.19200000e-02  1.60233753e+00 -1.43979122e-04 
 5.39200000e-02  1.66172752e+00 -1.49315648e-04 
 5.59200000e-02  1.72085510e+00 -1.54628592e-04 
 5.79200000e-02  1.77971094e+00 -1.59917125e-04 
 5.99200000e-02  1.83828575e+00 -1.65180401e-04 
 6.19200000e-02  1.89657027e+00 -1.70417599e-04 
 6.39200000e-02  1.95455529e+00 -1.75627881e-04 
 6.59200000e-02  2.01223167e+00 -1.80810434e-04 
 6.79200000e-02  2.06959030e+00 -1.85964428e-04 
 6.99200000e-02  2.12662211e+00 -1.91089067e-04 
 7.19200000e-02  2.18331811e+00 -1.96183523e-04 
 7.39200000e-02  2.23966933e+00 -2.01246993e-04 
 7.59200000e-02  2.29566688e+00 -2.06278697e-04 
 7.79200000e-02  2.35130192e+00 -2.11277818e-04 
 7.99200000e-02  2.40656567e+00 -2.16243579e-04 
 8.19200000e-02  2.46144939e+00 -2.21175183e-04 
 8.39200000e-02  2.51594441e+00 -2.26071882e-04 
 8.59200000e-02  2.57004214e+00 -2.30940867e-04 
 8.79200000e-02  2.62373404e+00 -2.35786800e-04 
 8.99200000e-02  2.67701161e+00 -2.40602450e-04 
 9.19200000e-02  2.72986645e+00 -2.45384801e-04 
 9.39200000e-02  2.78229022e+00 -2.50134708e-04 
 9.59200000e-02  2.83427462e+00 -2.54851576e-04 
 9.79200000e-02  2.88581147e+00 -2.59539439e-04 
 9.99200000e-02  2.93689261e+00 -2.64201554e-04 
 1.01920000e-01  2.98750998e+00 -2.68836603e-04 
 1.03920000e-01  3.03765559e+00 -2.73444259e-04 
 1.05920000e-01  3.08732152e+00 -2.78024213e-04 
 1.07920000e-01  3.13649992e+00 -2.82576183e-04 
 1.09920000e-01  3.18518304e+00 -2.87099927e-04 
 1.11920000e-01  3.23336317e+00 -2.91595145e-04 
 1.13920000e-01  3.28103272e+00 -2.96061602e-04 
 1.15920000e-01  3.32818416e+00 -3.00499049e-04 
 1.17920000e-01  3.37481004e+00 -3.04907232e-04 
 1.19920000e-01  3.42090300e+00 -3.09285928e-04 
 1.21920000e-01  3.46645576e+00 -3.13634883e-04 
 1.23920000e-01  3.51146112e+00 -3.17953893e-04 
 1.25920000e-01  3.55591198e+00 -3.22241048e-04 
 1.27920000e-01  3.59980133e+00 -3.26495255e-04 
 1.29920000e-01  3.64312222e+00 -3.30717089e-04 
 1.31920000e-01  3.68586782e+00 -3.34906327e-04 
 1.33920000e-01  3.72803139e+00 -3.39061371e-04 
 1.35920000e-01  3.76960625e+00 -3.43176881e-04 
 1.37920000e-01  3.81058584e+00 -3.47249332e-04 
 1.39920000e-01  3.85096371e+00 -3.51278890e-04 
 1.41920000e-01  3.89073346e+00 -3.55265048e-04 
 1.43920000e-01  3.92988881e+00 -3.59203461e-04 
 1.45920000e-01  3.96842360e+00 -3.63090929e-04 
 1.47920000e-01  4.00633172e+00 -3.66928023e-04 
 1.49920000e-01  4.04360720e+00 -3.70714239e-04 
 1.51920000e-01  4.08024414e+00 -3.74449058e-04 
 1.53920000e-01  4.11623677e+00 -3.78131968e-04 
 1.55920000e-01  4.15157939e+00 -3.81762485e-04 
 1.57920000e-01  4.18626643e+00 -3.85340096e-04 
 1.59920000e-01  4.22029241e+00 -3.88862362e-04 
 1.61920000e-01  4.25365196e+00 -3.92328915e-04 
 1.63920000e-01  4.28633981e+00 -3.95740921e-04 
 1.65920000e-01  4.31835080e+00 -3.99097463e-04 
 1.67920000e-01  4.34967986e+00 -4.02396278e-04 
 1.69920000e-01  4.38032207e+00 -4.05635597e-04 
 1.71920000e-01  4.41027257e+00 -4.08815157e-04 
 1.73920000e-01  4.43952663e+00 -4.11935244e-04 
 1.75920000e-01  4.46807965e+00 -4.14995858e-04 
 1.77920000e-01  4.49592710e+00 -4.17995821e-04 
 1.79920000e-01  4.52306459e+00 -4.20938152e-04 
 1.81920000e-01  4.54948784e+00 -4.23824708e-04 
 1.83920000e-01  4.57519267e+00 -4.26653552e-04 
 1.85920000e-01  4.60017503e+00 -4.29423975e-04 
 1.87920000e-01  4.62443096e+00 -4.32135217e-04 
 1.89920000e-01  4.64795664e+00 -4.34785810e-04 
 1.91920000e-01  4.67074836e+00 -4.37374456e-04 
 1.93920000e-01  4.69280251e+00 -4.39900501e-04 
 1.95920000e-01  4.71411562e+00 -4.42363040e-04 
 1.97920000e-01  4.73468431e+00 -4.44761095e-04 
 1.99920000e-01  4.75450534e+00 -4.47093612e-04 
 2.01920000e-01  4.77357557e+00 -4.49359538e-04 
 2.03920000e-01  4.79189201e+00 -4.51557744e-04 
 2.05920000e-01  4.80945175e+00 -4.53687023e-04 
 2.07920000e-01  4.82625202e+00 -4.55748234e-04 
 2.09920000e-01  4.84229017e+00 -4.57741403e-04 
 2.11920000e-01  4.85756366e+00 -4.59664396e-04 
 2.13920000e-01  4.87207009e+00 -4.61515958e-04 
 2.15920000e-01  4.88580717e+00 -4.63294043e-04 
 2.17920000e-01  4.89877272e+00 -4.64996882e-04 
 2.19920000e-01  4.91096469e+00 -4.66623400e-04 
 2.21920000e-01  4.92238117e+00 -4.68172184e-04 
 2.23920000e-01  4.93302035e+00 -4.69641851e-04 
 2.25920000e-01  4.94288054e+00 -4.71031004e-04 
 2.27920000e-01  4.95196020e+00 -4.72338242e-04 
 2.29920000e-01  4.96025788e+00 -4.73562193e-04 
 2.31920000e-01  4.96777229e+00 -4.74701528e-04 
 2.33920000e-01  4.97450222e+00 -4.75754937e-04 
 2.35920000e-01  4.98044662e+00 -4.76721134e-04 
 2.37920000e-01  4.98560455e+00 -4.77598964e-04 
 2.39920000e-01  4.98997520e+00 -4.78387244e-04 
 2.41920000e-01  4.99355787e+00 -4.79084907e-04 
 2.43920000e-01  4.99635201e+00 -4.79690495e-04 
 2.45920000e-01  4.99835716e+00 -4.80202813e-04 
 2.47920000e-01  4.99957301e+00 -4.80621251e-04 
 2.49920000e-01  4.99999937e+00 -4.80945067e-04 
 2.51920000e-01  4.99963617e+00 -4.81173565e-04 
 2.53920000e-01  4.99848347e+00 -4.81306187e-04 
 2.55920000e-01  4.99654146e+00 -4.81342434e-04 
 2.57920000e-01  4.99381043e+00 -4.81281821e-04 
 2.59920000e-01  4.99029082e+00 -4.81124007e-04 
 2.61920000e-01  4.98598319e+00 -4.80868666e-04 
 2.63920000e-01  4.98088821e+00 -4.80515570e-04 
 2.65920000e-01  4.97500669e+00 -4.80064540e-04 
 2.67920000e-01  4.96833956e+00 -4.79515438e-04 
 2.69920000e-01  4.96088788e+00 -4.78868215e-04 
 2.71920000e-01  4.95265281e+00 -4.78122839e-04 
 2.73920000e-01  4.94363566e+00 -4.77279347e-04 
 2.75920000e-01  4.93383785e+00 -4.76337818e-04 
 2.77920000e-01  4.92326093e+00 -4.75298356e-04 
 2.79920000e-01  4.91190657e+00 -4.74161135e-04 
 2.81920000e-01  4.89977657e+00 -4.72926368e-04 
 2.83920000e-01  4.88687283e+00 -4.71594259e-04 
 2.85920000e-01  4.87319740e+00 -4.70165098e-04 
 2.87920000e-01  4.85875244e+00 -4.68639192e-04 
 2.89920000e-01  4.84354022e+00 -4.67016893e-04 
 2.91920000e-01  4.82756315e+00 -4.65298569e-04 
 2.93920000e-01  4.81082375e+00 -4.63484643e-04 
 2.95920000e-01  4.79332467e+00 -4.61579216e-04 
 2.97920000e-01  4.77506867e+00 -4.59585792e-04 
 2.99920000e-01  4.75605863e+00 -4.57504185e-04 
 3.01920000e-01  4.73629755e+00 -4.55334919e-04 
 3.03920000e-01  4.71578855e+00 -4.53089724e-04 
 3.05920000e-01  4.69453488e+00 -4.50775465e-04 
 3.07920000e-01  4.67253988e+00 -4.48387840e-04 
 3.09920000e-01  4.64980704e+00 -4.45927108e-04 
 3.11920000e-01  4.62633994e+00 -4.43393644e-04 
 3.13920000e-01  4.60214228e+00 -4.40787804e-04 
 3.15920000e-01  4.57721790e+00 -4.38110005e-04 
 3.17920000e-01  4.55157072e+00 -4.35360696e-04 
 3.19920000e-01  4.52520479e+00 -4.32541602e-04 
 3.21920000e-01  4.49812428e+00 -4.29654776e-04 
 3.23920000e-01  4.47033347e+00 -4.26700836e-04 
 3.25920000e-01  4.44183673e+00 -4.23684039e-04 
 3.27920000e-01  4.41263858e+00 -4.20608397e-04 
 3.29920000e-01  4.38274363e+00 -4.17473940e-04 
 3.31920000e-01  4.35215658e+00 -4.14281149e-04 
 3.33920000e-01  4.32088228e+00 -4.11030504e-04 
 3.35920000e-01  4.28892567e+00 -4.07722464e-04 
 3.37920000e-01  4.25629178e+00 -4.04358391e-04 
 3.39920000e-01  4.22298577e+00 -4.00939801e-04 
 3.41920000e-01  4.18901291e+00 -3.97466317e-04 
 3.43920000e-01  4.15437855e+00 -3.93938022e-04 
 3.45920000e-01  4.11908817e+00 -3.90358775e-04 
 3.47920000e-01  4.08314734e+00 -3.86730607e-04 
 3.49920000e-01  4.04656173e+00 -3.83052601e-04 
 3.51920000e-01  4.00933712e+00 -3.79324876e-04 
 3.53920000e-01  3.97147939e+00 -3.75547528e-04 
 3.55920000e-01  3.93299451e+00 -3.71721085e-04 
 3.57920000e-01  3.89388858e+00 -3.67845992e-04 
 3.59920000e-01  3.85416775e+00 -3.63922764e-04 
 3.61920000e-01  3.81383830e+00 -3.59951872e-04 
 3.63920000e-01  3.77290661e+00 -3.55933829e-04 
 3.65920000e-01  3.73137913e+00 -3.51869118e-04 
 3.67920000e-01  3.68926242e+00 -3.47758218e-04 
 3.69920000e-01  3.64656313e+00 -3.43601658e-04 
 3.71920000e-01  3.60328801e+00 -3.39399920e-04 
 3.73920000e-01  3.55944389e+00 -3.35153531e-04 
 3.75920000e-01  3.51503769e+00 -3.30862969e-04 
 3.77920000e-01  3.47007642e+00 -3.26528796e-04 
 3.79920000e-01  3.42456720e+00 -3.22151469e-04 
 3.81920000e-01  3.37851719e+00 -3.17731534e-04 
 3.83920000e-01  3.33193367e+00 -3.13269499e-04 
 3.85920000e-01  3.28482400e+00 -3.08765906e-04 
 3.87920000e-01  3.23719563e+00 -3.04221252e-04 
 3.89920000e-01  3.18905606e+00 -2.99635621e-04 
 3.91920000e-01  3.14041290e+00 -2.95008409e-04 
 3.93920000e-01  3.09127383e+00 -2.90339933e-04 
 3.95920000e-01  3.04164662e+00 -2.85631160e-04 
 3.97920000e-01  2.99153910e+00 -2.80882654e-04 
 3.99920000e-01  2.94095917e+00 -2.76095025e-04 
 4.01920000e-01  2.88991484e+00 -2.71268881e-04 
 4.03920000e-01  2.83841415e+00 -2.66404791e-04 
 4.05920000e-01  2.78646525e+00 -2.61503406e-04 
 4.07920000e-01  2.73407633e+00 -2.56565293e-04 
 4.09920000e-01  2.68125566e+00 -2.51590067e-04 
 4.11920000e-01  2.62801160e+00 -2.46577852e-04 
 4.13920000e-01  2.57435254e+00 -2.41529738e-04 
 4.15920000e-01  2.52028697e+00 -2.36446118e-04 
 4.17920000e-01  2.46582341e+00 -2.31327483e-04 
 4.19920000e-01  2.41097047e+00 -2.26174559e-04 
 4.21920000e-01  2.35573680e+00 -2.20988050e-04 
 4.23920000e-01  2.30013114e+00 -2.15768651e-04 
 4.25920000e-01  2.24416227e+00 -2.10517089e-04 
 4.27920000e-01  2.18783901e+00 -2.05234077e-04 
 4.29920000e-01  2.13117027e+00 -1.99918804e-04 
 4.31920000e-01  2.07416499e+00 -1.94571288e-04 
 4.33920000e-01  2.01683218e+00 -1.89193070e-04 
 4.35920000e-01  1.95918088e+00 -1.83784968e-04 
 4.37920000e-01  1.90122021e+00 -1.78347853e-04 
 4.39920000e-01  1.84295931e+00 -1.72882566e-04 
 4.41920000e-01  1.78440739e+00 -1.67389988e-04 
 4.43920000e-01  1.72557369e+00 -1.61870969e-04 
 4.45920000e-01  1.66646751e+00 -1.56326396e-04 
 4.47920000e-01  1.60709816e+00 -1.50757135e-04 
 4.49920000e-01  1.54747504e+00 -1.45164064e-04 
 4.51920000e-01  1.48760756e+00 -1.39548072e-04 
 4.53920000e-01  1.42750516e+00 -1.33910043e-04 
 4.55920000e-01  1.36717734e+00 -1.28250869e-04 
 4.57920000e-01  1.30663364e+00 -1.22571439e-04 
 4.59920000e-01  1.24588359e+00 -1.16872660e-04 
 4.61920000e-01  1.18493681e+00 -1.11155423e-04 
 4.63920000e-01  1.12380292e+00 -1.05420635e-04 
 4.65920000e-01  1.06249156e+00 -9.96691924e-05 
 4.67920000e-01  1.00101242e+00 -9.39020202e-05 
 4.69920000e-01  9.39375212e-01 -8.81200144e-05 
 4.71920000e-01  8.77589664e-01 -8.23240942e-05 
 4.73920000e-01  8.15665535e-01 -7.65151762e-05 
 4.75920000e-01  7.53612603e-01 -7.06941725e-05 
 4.77920000e-01  6.91440667e-01 -6.48620081e-05 
 4.79920000e-01  6.29159545e-01 -5.90195996e-05 
 4.81920000e-01  5.66779071e-01 -5.31678703e-05 
 4.83920000e-01  5.04309095e-01 -4.73077456e-05 
 4.85920000e-01  4.41759484e-01 -4.14401518e-05 
 4.87920000e-01  3.79140114e-01 -3.55660149e-05 
 4.89920000e-01  3.16460873e-01 -2.96862593e-05 
 4.91920000e-01  2.53731659e-01 -2.38018175e-05 
 4.93920000e-01  1.90962378e-01 -1.79136165e-05 
 4.95920000e-01  1.28162942e-01 -1.20225868e-05 
 4.97920000e-01  6.53432671e-02 -6.12965888e-06 
 4.99920000e-01  2.51327402e-03 -2.35762811e-07 
 5.01920000e-01 -6.03171159e-02  5.65817048e-06 
 5.03920000e-01 -1.23137981e-01  1.15512103e-05 
 5.05920000e-01 -1.85939401e-01  1.74424256e-05 
 5.07920000e-01 -2.48711460e-01  2.33308872e-05 
 5.09920000e-01 -3.11444243e-01  2.92156641e-05 
 5.11920000e-01 -3.74127847e-01  3.50958285e-05 
 5.13920000e-01 -4.36752371e-01  4.09704500e-05 
 5.15920000e-01 -4.99307926e-01  4.68386015e-05 
 5.17920000e-01 -5.61784636e-01  5.26993578e-05 
 5.19920000e-01 -6.24172633e-01  5.85517912e-05 
 5.21920000e-01 -6.86462065e-01  6.43949768e-05 
 5.23920000e-01 -7.48643098e-01  7.02279976e-05 
 5.25920000e-01 -8.10705911e-01  7.60499281e-05 
 5.27920000e-01 -8.72640704e-01  8.18598471e-05 
 5.29920000e-01 -9.34437698e-01  8.76568400e-05 
 5.31920000e-01 -9.96087132e-01  9.34399914e-05 
 5.33920000e-01 -1.05757927e+00  9.92083892e-05 
 5.35920000e-01 -1.11890441e+00  1.04961117e-04 
 5.37920000e-01 -1.18005286e+00  1.10697272e-04 
 5.39920000e-01 -1.24101496e+00  1.16415947e-04 
 5.41920000e-01 -1.30178110e+00  1.22116240e-04 
 5.43920000e-01 -1.36234167e+00  1.27797248e-04 
 5.45920000e-01 -1.42268710e+00  1.33458071e-04 
 5.47920000e-01 -1.48280788e+00  1.39097829e-04 
 5.49920000e-01 -1.54269451e+00  1.44715613e-04 
 5.51920000e-01 -1.60233753e+00  1.50310555e-04 
 5.53920000e-01 -1.66172752e+00  1.55881750e-04 
 5.55920000e-01 -1.72085510e+00  1.61428337e-04 
 5.57920000e-01 -1.77971094e+00  1.66949425e-04 
 5.59920000e-01 -1.83828575e+00  1.72444163e-04 
 5.61920000e-01 -1.89657027e+00  1.77911657e-04 
 5.63920000e-01 -1.95455529e+00  1.83351061e-04 
 5.65920000e-01 -2.01223167e+00  1.88761511e-04 
 5.67920000e-01 -2.06959030e+00  1.94142157e-04 
 5.69920000e-01 -2.12662211e+00  1.99492136e-04 
 5.71920000e-01 -2.18331811e+00  2.04810620e-04 
 5.73920000e-01 -2.23966933e+00  2.10096770e-04 
 5.75920000e-01 -2.29566688e+00  2.15350755e-04 
 5.77920000e-01 -2.35130192e+00  2.20572761e-04 
 5.79920000e-01 -2.40656567e+00  2.25761955e-04 
 5.81920000e-01 -2.46144939e+00  2.30917620e-04 
 5.83920000e-01 -2.51594441e+00  2.36039038e-04 
 5.85920000e-01 -2.57004214e+00  2.41125525e-04 
 5.87920000e-01 -2.62373404e+00  2.46176379e-04 
 5.89920000e-01 -2.67701161e+00  2.51191322e-04 
 5.91920000e-01 -2.72986645e+00  2.56169908e-04 
 5.93920000e-01 -2.78229022e+00  2.61111319e-04 
 5.95920000e-01 -2.83427462e+00  2.66015599e-04 
 5.97920000e-01 -2.88581147e+00  2.70882698e-04 
 5.99920000e-01 -2.93689261e+00  2.75711918e-04 
 6.01920000e-01 -2.98750998e+00  2.80502674e-04 
 6.03920000e-01 -3.03765559e+00  2.85254351e-04 
 6.05920000e-01 -3.08732152e+00  2.89966352e-04 
 6.07920000e-01 -3.13649992e+00  2.94638100e-04 
 6.09920000e-01 -3.18518304e+00  2.99268975e-04 
 6.11920000e-01 -3.23336317e+00  3.03858419e-04 
 6.13920000e-01 -3.28103272e+00  3.08406418e-04 
 6.15920000e-01 -3.32818416e+00  3.12913275e-04 
 6.17920000e-01 -3.37481004e+00  3.17378685e-04 
 6.19920000e-01 -3.42090300e+00  3.21802026e-04 
 6.21920000e-01 -3.46645576e+00  3.26182811e-04 
 6.23920000e-01 -3.51146112e+00  3.30520507e-04 
 6.25920000e-01 -3.55591198e+00  3.34814599e-04 
 6.27920000e-01 -3.59980133e+00  3.39064581e-04 
 6.29920000e-01 -3.64312222e+00  3.43269927e-04 
 6.31920000e-01 -3.68586782e+00  3.47430156e-04 
 6.33920000e-01 -3.72803139e+00  3.51544749e-04 
 6.35920000e-01 -3.76960625e+00  3.55613214e-04 
 6.37920000e-01 -3.81058584e+00  3.59635053e-04 
 6.39920000e-01 -3.85096371e+00  3.63609750e-04 
 6.41920000e-01 -3.89073346e+00  3.67536849e-04 
 6.43920000e-01 -3.92988881e+00  3.71415842e-04 
 6.45920000e-01 -3.96842360e+00  3.75246228e-04 
 6.47920000e-01 -4.00633172e+00  3.79027551e-04 
 6.49920000e-01 -4.04360720e+00  3.82759303e-04 
 6.51920000e-01 -4.08024414e+00  3.86441029e-04 
 6.53920000e-01 -4.11623677e+00  3.90072918e-04 
 6.55920000e-01 -4.15157939e+00  3.93654866e-04 
 6.57920000e-01 -4.18626643e+00  3.97186086e-04 
 6.59920000e-01 -4.22029241e+00  4.00664428e-04 
 6.61920000e-01 -4.25365196e+00  4.04087725e-04 
 6.63920000e-01 -4.28633981e+00  4.07456142e-04 
 6.65920000e-01 -4.31835080e+00  4.10769642e-04 
 6.67920000e-01 -4.34967986e+00  4.14025843e-04 
 6.69920000e-01 -4.38032207e+00  4.17223276e-04 
 6.71920000e-01 -4.41027257e+00  4.20362422e-04 
 6.73920000e-01 -4.43952663e+00  4.23442836e-04 
 6.75920000e-01 -4.46807965e+00  4.26464046e-04 
 6.77920000e-01 -4.49592710e+00  4.29425654e-04 
 6.79920000e-01 -4.52306459e+00  4.32320787e-04 
 6.81920000e-01 -4.54948784e+00  4.35145268e-04 
 6.83920000e-01 -4.57519267e+00  4.37901163e-04 
 6.85920000e-01 -4.60017503e+00  4.40585764e-04 
 6.87920000e-01 -4.62443096e+00  4.43197592e-04 
 6.89920000e-01 -4.64795664e+00  4.45737102e-04 
 6.91920000e-01 -4.67074836e+00  4.48203901e-04 
 6.93920000e-01 -4.69280251e+00  4.50597651e-04 
 6.95920000e-01 -4.71411562e+00  4.52918061e-04 
 6.97920000e-01 -4.73468431e+00  4.55164819e-04 
 6.99920000e-01 -4.75450534e+00  4.57337746e-04 
 7.01920000e-01 -4.77357557e+00  4.59427959e-04 
 7.03920000e-01 -4.79189201e+00  4.61428168e-04 
 7.05920000e-01 -4.80945175e+00  4.63339726e-04 
 7.07920000e-01 -4.82625202e+00  4.65162124e-04 
 7.09920000e-01 -4.84229017e+00  4.66889935e-04 
 7.11920000e-01 -4.85756366e+00  4.68519680e-04 
 7.13920000e-01 -4.87207009e+00  4.70053032e-04 
 7.15920000e-01 -4.88580717e+00  4.71489626e-04 
 7.17920000e-01 -4.89877272e+00  4.72829165e-04 
 7.19920000e-01 -4.91096469e+00  4.74071353e-04 
 7.21920000e-01 -4.92238117e+00  4.75215959e-04 
 7.23920000e-01 -4.93302035e+00  4.76262769e-04 
 7.25920000e-01 -4.94288054e+00  4.77211639e-04 
 7.27920000e-01 -4.95196020e+00  4.78062452e-04 
 7.29920000e-01 -4.96025788e+00  4.78815114e-04 
 7.31920000e-01 -4.96777229e+00  4.79469596e-04 
 7.33920000e-01 -4.97450222e+00  4.80025908e-04 
 7.35920000e-01 -4.98044662e+00  4.80484129e-04 
 7.37920000e-01 -4.98560455e+00  4.80844379e-04 
 7.39920000e-01 -4.98997520e+00  4.81106823e-04 
 7.41920000e-01 -4.99355787e+00  4.81271723e-04 
 7.43920000e-01 -4.99635201e+00  4.81339371e-04 
 7.45920000e-01 -4.99835716e+00  4.81310138e-04 
 7.47920000e-01 -4.99957301e+00  4.81184481e-04 
 7.49920000e-01 -4.99999937e+00  4.80962919e-04 
 7.51920000e-01 -4.99963617e+00  4.80645975e-04 
 7.53920000e-01 -4.99848347e+00  4.80234415e-04 
 7.55920000e-01 -4.99654146e+00  4.79728924e-04 
 7.57920000e-01 -4.99381043e+00  4.79130307e-04 
 7.59920000e-01 -4.99029082e+00  4.78439477e-04 
 7.61920000e-01 -4.98598319e+00  4.77657857e-04 
 7.63920000e-01 -4.98088821e+00  4.76786872e-04 
 7.65920000e-01 -4.97500669e+00  4.75827517e-04 
 7.67920000e-01 -4.96833956e+00  4.74780991e-04 
 7.69920000e-01 -4.96088788e+00  4.73648598e-04 
 7.71920000e-01 -4.95265281e+00  4.72431602e-04 
 7.73920000e-01 -4.94363566e+00  4.71131353e-04 
 7.75920000e-01 -4.93383785e+00  4.69749271e-04 
 7.77920000e-01 -4.92326093e+00  4.68286720e-04 
 7.79920000e-01 -4.91190657e+00  4.66745129e-04 
 7.81920000e-01 -4.89977657e+00  4.65125891e-04 
 7.83920000e-01 -4.88687283e+00  4.63430426e-04 
 7.85920000e-01 -4.87319740e+00  4.61660093e-04 
 7.87920000e-01 -4.85875244e+00  4.59816269e-04 
 7.89920000e-01 -4.84354022e+00  4.57900762e-04 
 7.91920000e-01 -4.82756315e+00  4.55915261e-04 
 7.93920000e-01 -4.81082375e+00  4.53860895e-04 
