 time            vin             i(v1)          
 2.00000000e-05  6.28318529e-04 -4.26480985e-08 
 4.00000000e-05  1.25663705e-03 -8.52961965e-08 
 8.00000000e-05  2.51327402e-03 -1.70592385e-07 
 1.60000000e-04  5.02654740e-03 -3.41184734e-07 
 3.20000000e-04  1.00530897e-02 -6.82369130e-07 
 6.40000000e-04  2.01061388e-02 -1.36473549e-06 
 1.28000000e-03  4.02119525e-02 -2.72944890e-06 
 2.00000000e-03  6.28301994e-02 -4.26469775e-06 
 2.12800000e-03  6.68510998e-02 -4.53762244e-06 
 2.38400000e-03  7.48927681e-02 -5.08346330e-06 
 2.89600000e-03  9.09755027e-02 -6.17510423e-06 
 3.92000000e-03  1.23137981e-01 -8.35818238e-06 
 5.92000000e-03  1.85939401e-01 -1.26209261e-05 
 7.92000000e-03  2.48711460e-01 -1.68816775e-05 
 9.92000000e-03  3.11444243e-01 -2.11397631e-05 
 1.19200000e-02  3.74127847e-01 -2.53945106e-05 
 1.39200000e-02  4.36752371e-01 -2.96452479e-05 
 1.59200000e-02  4.99307926e-01 -3.38913043e-05 
 1.79200000e-02  5.61784636e-01 -3.81320075e-05 
 1.99200000e-02  6.24172633e-01 -4.23666911e-05 
 2.19200000e-02  6.86462065e-01 -4.65946846e-05 
 2.39200000e-02  7.48643098e-01 -5.08153180e-05 
 2.59200000e-02  8.10705911e-01 -5.50279274e-05 
 2.79200000e-02  8.72640704e-01 -5.92318480e-05 
 2.99200000e-02  9.34437698e-01 -6.34264147e-05 
 3.19200000e-02  9.96087132e-01 -6.76109691e-05 
 3.39200000e-02  1.05757927e+00 -7.17848376e-05 
 3.59200000e-02  1.11890441e+00 -7.59473814e-05 
 3.79200000e-02  1.18005286e+00 -8.00979267e-05 
 3.99200000e-02  1.24101496e+00 -8.42358237e-05 
 4.19200000e-02  1.30178110e+00 -8.83604209e-05 
 4.39200000e-02  1.36234167e+00 -9.24710655e-05 
 4.59200000e-02  1.42268710e+00 -9.65671050e-05 
 4.79200000e-02  1.48280788e+00 -1.00647897e-04 
 4.99200000e-02  1.54269451e+00 -1.04712793e-04 
 5.19200000e-02  1.60233753e+00 -1.08761158e-04 
 5.39200000e-02  1.66172752e+00 -1.12792349e-04 
 5.59200000e-02  1.72085510e+00 -1.16805723e-04 
 5.79200000e-02  1.77971094e+00 -1.20800652e-04 
 5.99200000e-02  1.83828575e+00 -1.24776512e-04 
 6.19200000e-02  1.89657027e+00 -1.28732665e-04 
 6.39200000e-02  1.95455529e+00 -1.32668488e-04 
 6.59200000e-02  2.01223167e+00 -1.36583364e-04 
 6.79200000e-02  2.06959030e+00 -1.40476670e-04 
 6.99200000e-02  2.12662211e+00 -1.44347791e-04 
 7.19200000e-02  2.18331811e+00 -1.48196117e-04 
 7.39200000e-02  2.23966933e+00 -1.52013620e-04 
 7.59200000e-02  2.29566688e+00 -1.55792217e-04 
 7.79200000e-02  2.35130192e+00 -1.59519871e-04 
 7.99200000e-02  2.40656567e+00 -1.63187784e-04 
 8.19200000e-02  2.46144939e+00 -1.66798522e-04 
 8.39200000e-02  2.51594441e+00 -1.70350070e-04 
 8.59200000e-02  2.57004214e+00 -1.73840418e-04 
 8.79200000e-02  2.62373404e+00 -1.77267704e-04 
 8.99200000e-02  2.67701161e+00 -1.80630223e-04 
 9.19200000e-02  2.72986645e+00 -1.83926405e-04 
 9.39200000e-02  2.78229022e+00 -1.87154866e-04 
 9.59200000e-02  2.83427462e+00 -1.90314355e-04 
 9.79200000e-02  2.88581147e+00 -1.93403822e-04 
 9.99200000e-02  2.93689261e+00 -1.96422359e-04 
 1.01920000e-01  2.98750998e+00 -1.99369248e-04 
 1.03920000e-01  3.03765559e+00 -2.02243948e-04 
 1.05920000e-01  3.08732152e+00 -2.05046070e-04 
 1.07920000e-01  3.13649992e+00 -2.07775382e-04 
 1.09920000e-01  3.18518304e+00 -2.10431847e-04 
 1.11920000e-01  3.23336317e+00 -2.13012550e-04 
 1.13920000e-01  3.28103272e+00 -2.15514877e-04 
 1.15920000e-01  3.32818416e+00 -2.17939225e-04 
 1.17920000e-01  3.37481004e+00 -2.20285884e-04 
 1.19920000e-01  3.42090300e+00 -2.22555195e-04 
 1.21920000e-01  3.46645576e+00 -2.24747666e-04 
 1.23920000e-01  3.51146112e+00 -2.26863871e-04 
 1.25920000e-01  3.55591198e+00 -2.28904530e-04 
 1.27920000e-01  3.59980133e+00 -2.30870426e-04 
 1.29920000e-01  3.64312222e+00 -2.32762432e-04 
 1.31920000e-01  3.68586782e+00 -2.34581477e-04 
 1.33920000e-01  3.72803139e+00 -2.36328548e-04 
 1.35920000e-01  3.76960625e+00 -2.38004734e-04 
 1.37920000e-01  3.81058584e+00 -2.39611101e-04 
 1.39920000e-01  3.85096371e+00 -2.41148796e-04 
 1.41920000e-01  3.89073346e+00 -2.42618958e-04 
 1.43920000e-01  3.92988881e+00 -2.44022766e-04 
 1.45920000e-01  3.96842360e+00 -2.45363774e-04 
 1.47920000e-01  4.00633172e+00 -2.46644974e-04 
 1.49920000e-01  4.04360720e+00 -2.47869337e-04 
 1.51920000e-01  4.08024414e+00 -2.49040083e-04 
 1.53920000e-01  4.11623677e+00 -2.50159978e-04 
 1.55920000e-01  4.15157939e+00 -2.51232230e-04 
 1.57920000e-01  4.18626643e+00 -2.52257977e-04 
 1.59920000e-01  4.22029241e+00 -2.53238658e-04 
 1.61920000e-01  4.25365196e+00 -2.54175605e-04 
 1.63920000e-01  4.28633981e+00 -2.55070154e-04 
 1.65920000e-01  4.31835080e+00 -2.55923571e-04 
 1.67920000e-01  4.34967986e+00 -2.56737073e-04 
 1.69920000e-01  4.38032207e+00 -2.57511811e-04 
 1.71920000e-01  4.41027257e+00 -2.58248903e-04 
 1.73920000e-01  4.43952663e+00 -2.58949401e-04 
 1.75920000e-01  4.46807965e+00 -2.59614669e-04 
 1.77920000e-01  4.49592710e+00 -2.60245848e-04 
 1.79920000e-01  4.52306459e+00 -2.60843741e-04 
 1.81920000e-01  4.54948784e+00 -2.61409135e-04 
 1.83920000e-01  4.57519267e+00 -2.61942427e-04 
 1.85920000e-01  4.60017503e+00 -2.62444073e-04 
 1.87920000e-01  4.62443096e+00 -2.62914833e-04 
 1.89920000e-01  4.64795664e+00 -2.63355341e-04 
 1.91920000e-01  4.67074836e+00 -2.63766126e-04 
 1.93920000e-01  4.69280251e+00 -2.64147709e-04 
 1.95920000e-01  4.71411562e+00 -2.64500527e-04 
 1.97920000e-01  4.73468431e+00 -2.64825008e-04 
 1.99920000e-01  4.75450534e+00 -2.65121494e-04 
 2.01920000e-01  4.77357557e+00 -2.65390293e-04 
 2.03920000e-01  4.79189201e+00 -2.65631703e-04 
 2.05920000e-01  4.80945175e+00 -2.65843628e-04 
 2.07920000e-01  4.82625202e+00 -2.66024706e-04 
 2.09920000e-01  4.84229017e+00 -2.66175815e-04 
 2.11920000e-01  4.85756366e+00 -2.66296794e-04 
 2.13920000e-01  4.87207009e+00 -2.66387466e-04 
 2.15920000e-01  4.88580717e+00 -2.66447603e-04 
 2.17920000e-01  4.89877272e+00 -2.66476901e-04 
 2.19920000e-01  4.91096469e+00 -2.66475091e-04 
 2.21920000e-01  4.92238117e+00 -2.66441784e-04 
 2.23920000e-01  4.93302035e+00 -2.66376619e-04 
 2.25920000e-01  4.94288054e+00 -2.66279192e-04 
 2.27920000e-01  4.95196020e+00 -2.66149063e-04 
 2.29920000e-01  4.96025788e+00 -2.65985787e-04 
 2.31920000e-01  4.96777229e+00 -2.65788892e-04 
 2.33920000e-01  4.97450222e+00 -2.65557886e-04 
 2.35920000e-01  4.98044662e+00 -2.65292287e-04 
 2.37920000e-01  4.98560455e+00 -2.64991594e-04 
 2.39920000e-01  4.98997520e+00 -2.64655303e-04 
 2.41920000e-01  4.99355787e+00 -2.64282912e-04 
 2.43920000e-01  4.99635201e+00 -2.63873944e-04 
 2.45920000e-01  4.99835716e+00 -2.63427918e-04 
 2.47920000e-01  4.99957301e+00 -2.62944347e-04 
 2.49920000e-01  4.99999937e+00 -2.62422438e-04 
 2.51920000e-01  4.99963617e+00 -2.61861508e-04 
 2.53920000e-01  4.99848347e+00 -2.61261230e-04 
 2.55920000e-01  4.99654146e+00 -2.60621561e-04 
 2.57920000e-01  4.99381043e+00 -2.59942323e-04 
 2.59920000e-01  4.99029082e+00 -2.59223074e-04 
 2.61920000e-01  4.98598319e+00 -2.58463536e-04 
 2.63920000e-01  4.98088821e+00 -2.57663485e-04 
 2.65920000e-01  4.97500669e+00 -2.56822722e-04 
 2.67920000e-01  4.96833956e+00 -2.55940805e-04 
 2.69920000e-01  4.96088788e+00 -2.55017414e-04 
 2.71920000e-01  4.95265281e+00 -2.54052605e-04 
 2.73920000e-01  4.94363566e+00 -2.53046411e-04 
 2.75920000e-01  4.93383785e+00 -2.51998847e-04 
 2.77920000e-01  4.92326093e+00 -2.50910030e-04 
 2.79920000e-01  4.91190657e+00 -2.49780104e-04 
 2.81920000e-01  4.89977657e+00 -2.48609288e-04 
 2.83920000e-01  4.88687283e+00 -2.47397810e-04 
 2.85920000e-01  4.87319740e+00 -2.46145941e-04 
 2.87920000e-01  4.85875244e+00 -2.44854044e-04 
 2.89920000e-01  4.84354022e+00 -2.43522504e-04 
 2.91920000e-01  4.82756315e+00 -2.42151720e-04 
 2.93920000e-01  4.81082375e+00 -2.40742161e-04 
 2.95920000e-01  4.79332467e+00 -2.39294880e-04 
 2.97920000e-01  4.77506867e+00 -2.37810842e-04 
 2.99920000e-01  4.75605863e+00 -2.36290480e-04 
 3.01920000e-01  4.73629755e+00 -2.34734345e-04 
 3.03920000e-01  4.71578855e+00 -2.33142980e-04 
 3.05920000e-01  4.69453488e+00 -2.31517022e-04 
 3.07920000e-01  4.67253988e+00 -2.29857087e-04 
 3.09920000e-01  4.64980704e+00 -2.28163801e-04 
 3.11920000e-01  4.62633994e+00 -2.26437838e-04 
 3.13920000e-01  4.60214228e+00 -2.24679870e-04 
 3.15920000e-01  4.57721790e+00 -2.22898273e-04 
 3.17920000e-01  4.55157072e+00 -2.21099636e-04 
 3.19920000e-01  4.52520479e+00 -2.19282400e-04 
 3.21920000e-01  4.49812428e+00 -2.17446530e-04 
 3.23920000e-01  4.47033347e+00 -2.15592377e-04 
 3.25920000e-01  4.44183673e+00 -2.13720214e-04 
 3.27920000e-01  4.41263858e+00 -2.11830352e-04 
 3.29920000e-01  4.38274363e+00 -2.09923087e-04 
 3.31920000e-01  4.35215658e+00 -2.07998673e-04 
 3.33920000e-01  4.32088228e+00 -2.06057406e-04 
 3.35920000e-01  4.28892567e+00 -2.04099552e-04 
 3.37920000e-01  4.25629178e+00 -2.02125358e-04 
 3.39920000e-01  4.22298577e+00 -2.00135091e-04 
 3.41920000e-01  4.18901291e+00 -1.98128971e-04 
 3.43920000e-01  4.15437855e+00 -1.96107259e-04 
 3.45920000e-01  4.11908817e+00 -1.94069557e-04 
 3.47920000e-01  4.08314734e+00 -1.92015721e-04 
 3.49920000e-01  4.04656173e+00 -1.89946157e-04 
 3.51920000e-01  4.00933712e+00 -1.87861062e-04 
 3.53920000e-01  3.97147939e+00 -1.85760612e-04 
 3.55920000e-01  3.93299451e+00 -1.83644994e-04 
 3.57920000e-01  3.89388858e+00 -1.81514370e-04 
 3.59920000e-01  3.85416775e+00 -1.79368917e-04 
 3.61920000e-01  3.81383830e+00 -1.77208815e-04 
 3.63920000e-01  3.77290661e+00 -1.75034221e-04 
 3.65920000e-01  3.73137913e+00 -1.72845280e-04 
 3.67920000e-01  3.68926242e+00 -1.70642180e-04 
 3.69920000e-01  3.64656313e+00 -1.68425055e-04 
 3.71920000e-01  3.60328801e+00 -1.66194069e-04 
 3.73920000e-01  3.55944389e+00 -1.63949354e-04 
 3.75920000e-01  3.51503769e+00 -1.61691088e-04 
 3.77920000e-01  3.47007642e+00 -1.59419401e-04 
 3.79920000e-01  3.42456720e+00 -1.57134435e-04 
 3.81920000e-01  3.37851719e+00 -1.54836341e-04 
 3.83920000e-01  3.33193367e+00 -1.52525244e-04 
 3.85920000e-01  3.28482400e+00 -1.50201302e-04 
 3.87920000e-01  3.23719563e+00 -1.47864638e-04 
 3.89920000e-01  3.18905606e+00 -1.45515386e-04 
 3.91920000e-01  3.14041290e+00 -1.43153697e-04 
 3.93920000e-01  3.09127383e+00 -1.40779689e-04 
 3.95920000e-01  3.04164662e+00 -1.38393505e-04 
 3.97920000e-01  2.99153910e+00 -1.35995262e-04 
 3.99920000e-01  2.94095917e+00 -1.33585097e-04 
 4.01920000e-01  2.88991484e+00 -1.31163142e-04 
 4.03920000e-01  2.83841415e+00 -1.28729510e-04 
 4.05920000e-01  2.78646525e+00 -1.26284342e-04 
 4.07920000e-01  2.73407633e+00 -1.23827766e-04 
 4.09920000e-01  2.68125566e+00 -1.21359889e-04 
 4.11920000e-01  2.62801160e+00 -1.18880837e-04 
 4.13920000e-01  2.57435254e+00 -1.16390724e-04 
 4.15920000e-01  2.52028697e+00 -1.13889703e-04 
 4.17920000e-01  2.46582341e+00 -1.11377851e-04 
 4.19920000e-01  2.41097047e+00 -1.08855299e-04 
 4.21920000e-01  2.35573680e+00 -1.06321892e-04 
 4.23920000e-01  2.30013114e+00 -1.03775813e-04 
 4.25920000e-01  2.24416227e+00 -1.01216439e-04 
 4.27920000e-01  2.18783901e+00 -9.86448223e-05 
 4.29920000e-01  2.13117027e+00 -9.60611982e-05 
 4.31920000e-01  2.07416499e+00 -9.34658291e-05 
 4.33920000e-01  2.01683218e+00 -9.08589647e-05 
 4.35920000e-01  1.95918088e+00 -8.82408615e-05 
 4.37920000e-01  1.90122021e+00 -8.56117733e-05 
 4.39920000e-01  1.84295931e+00 -8.29719724e-05 
 4.41920000e-01  1.78440739e+00 -8.03217109e-05 
 4.43920000e-01  1.72557369e+00 -7.76612536e-05 
 4.45920000e-01  1.66646751e+00 -7.49908679e-05 
 4.47920000e-01  1.60709816e+00 -7.23108175e-05 
 4.49920000e-01  1.54747504e+00 -6.96213706e-05 
 4.51920000e-01  1.48760756e+00 -6.69227961e-05 
 4.53920000e-01  1.42750516e+00 -6.42153583e-05 
 4.55920000e-01  1.36717734e+00 -6.14993311e-05 
 4.57920000e-01  1.30663364e+00 -5.87749774e-05 
 4.59920000e-01  1.24588359e+00 -5.60420809e-05 
 4.61920000e-01  1.18493681e+00 -5.33006485e-05 
 4.63920000e-01  1.12380292e+00 -5.05508673e-05 
 4.65920000e-01  1.06249156e+00 -4.77929563e-05 
 4.67920000e-01  1.00101242e+00 -4.50275042e-05 
 4.69920000e-01  9.39375212e-01 -4.22549389e-05 
 4.71920000e-01  8.77589664e-01 -3.94757063e-05 
 4.73920000e-01  8.15665535e-01 -3.66902379e-05 
 4.75920000e-01  7.53612603e-01 -3.38989739e-05 
 4.77920000e-01  6.91440667e-01 -3.11023564e-05 
 4.79920000e-01  6.29159545e-01 -2.83008297e-05 
 4.81920000e-01  5.66779071e-01 -2.54948356e-05 
 4.83920000e-01  5.04309095e-01 -2.26848133e-05 
 4.85920000e-01  4.41759484e-01 -1.98712085e-05 
 4.87920000e-01  3.79140114e-01 -1.70544664e-05 
 4.89920000e-01  3.16460873e-01 -1.42350303e-05 
 4.91920000e-01  2.53731659e-01 -1.14133484e-05 
 4.93920000e-01  1.90962378e-01 -8.58986270e-06 
 4.95920000e-01  1.28162942e-01 -5.76502027e-06 
 4.97920000e-01  6.53432671e-02 -2.93926863e-06 
 4.99920000e-01  2.51327402e-03 -1.13052001e-07 
 5.01920000e-01 -6.03171159e-02  2.71318229e-06 
 5.03920000e-01 -1.23137981e-01  5.53898802e-06 
 5.05920000e-01 -1.85939401e-01  8.36391916e-06 
 5.07920000e-01 -2.48711460e-01  1.11875293e-05 
 5.09920000e-01 -3.11444243e-01  1.40093729e-05 
 5.11920000e-01 -3.74127847e-01  1.68290045e-05 
 5.13920000e-01 -4.36752371e-01  1.96459778e-05 
 5.15920000e-01 -4.99307926e-01  2.24598500e-05 
 5.17920000e-01 -5.61784636e-01  2.52701751e-05 
 5.19920000e-01 -6.24172633e-01  2.80765114e-05 
 5.21920000e-01 -6.86462065e-01  3.08784118e-05 
 5.23920000e-01 -7.48643098e-01  3.36754358e-05 
 5.25920000e-01 -8.10705911e-01  3.64671412e-05 
 5.27920000e-01 -8.72640704e-01  3.92530914e-05 
 5.29920000e-01 -9.34437698e-01  4.20328413e-05 
 5.31920000e-01 -9.96087132e-01  4.48059553e-05 
 5.33920000e-01 -1.05757927e+00  4.75719897e-05 
 5.35920000e-01 -1.11890441e+00  5.03305184e-05 
 5.37920000e-01 -1.18005286e+00  5.30810958e-05 
 5.39920000e-01 -1.24101496e+00  5.58232898e-05 
 5.41920000e-01 -1.30178110e+00  5.85569706e-05 
 5.43920000e-01 -1.36234167e+00  6.12819992e-05 
 5.45920000e-01 -1.42268710e+00  6.39985204e-05 
 5.47920000e-01 -1.48280788e+00  6.67066474e-05 
 5.49920000e-01 -1.54269451e+00  6.94059459e-05 
 5.51920000e-01 -1.60233753e+00  7.20961389e-05 
 5.53920000e-01 -1.66172752e+00  7.47769520e-05 
 5.55920000e-01 -1.72085510e+00  7.74481256e-05 
 5.57920000e-01 -1.77971094e+00  8.01093875e-05 
 5.59920000e-01 -1.83828575e+00  8.27604821e-05 
 5.61920000e-01 -1.89657027e+00  8.54011343e-05 
 5.63920000e-01 -1.95455529e+00  8.80310887e-05 
 5.65920000e-01 -2.01223167e+00  9.06500865e-05 
 5.67920000e-01 -2.06959030e+00  9.32578634e-05 
 5.69920000e-01 -2.12662211e+00  9.58541642e-05 
 5.71920000e-01 -2.18331811e+00  9.84387365e-05 
 5.73920000e-01 -2.23966933e+00  1.01011323e-04 
 5.75920000e-01 -2.29566688e+00  1.03571682e-04 
 5.77920000e-01 -2.35130192e+00  1.06119542e-04 
 5.79920000e-01 -2.40656567e+00  1.08654669e-04 
 5.81920000e-01 -2.46144939e+00  1.11178054e-04 
 5.83920000e-01 -2.51594441e+00  1.13690774e-04 
 5.85920000e-01 -2.57004214e+00  1.16192704e-04 
 5.87920000e-01 -2.62373404e+00  1.18683713e-04 
 5.89920000e-01 -2.67701161e+00  1.21163675e-04 
 5.91920000e-01 -2.72986645e+00  1.23632481e-04 
 5.93920000e-01 -2.78229022e+00  1.26090001e-04 
 5.95920000e-01 -2.83427462e+00  1.28536107e-04 
 5.97920000e-01 -2.88581147e+00  1.30970684e-04 
 5.99920000e-01 -2.93689261e+00  1.33393606e-04 
 6.01920000e-01 -2.98750998e+00  1.35804749e-04 
 6.03920000e-01 -3.03765559e+00  1.38203973e-04 
 6.05920000e-01 -3.08732152e+00  1.40591164e-04 
 6.07920000e-01 -3.13649992e+00  1.42966168e-04 
 6.09920000e-01 -3.18518304e+00  1.45328880e-04 
 6.11920000e-01 -3.23336317e+00  1.47679158e-04 
 6.13920000e-01 -3.28103272e+00  1.50016855e-04 
 6.15920000e-01 -3.32818416e+00  1.52341852e-04 
 6.17920000e-01 -3.37481004e+00  1.54654001e-04 
 6.19920000e-01 -3.42090300e+00  1.56953174e-04 
 6.21920000e-01 -3.46645576e+00  1.59239224e-04 
 6.23920000e-01 -3.51146112e+00  1.61512005e-04 
 6.25920000e-01 -3.55591198e+00  1.63771384e-04 
 6.27920000e-01 -3.59980133e+00  1.66017206e-04 
 6.29920000e-01 -3.64312222e+00  1.68249325e-04 
 6.31920000e-01 -3.68586782e+00  1.70467589e-04 
 6.33920000e-01 -3.72803139e+00  1.72671852e-04 
 6.35920000e-01 -3.76960625e+00  1.74861949e-04 
 6.37920000e-01 -3.81058584e+00  1.77037724e-04 
 6.39920000e-01 -3.85096371e+00  1.79199028e-04 
 6.41920000e-01 -3.89073346e+00  1.81345675e-04 
 6.43920000e-01 -3.92988881e+00  1.83477520e-04 
 6.45920000e-01 -3.96842360e+00  1.85594378e-04 
 6.47920000e-01 -4.00633172e+00  1.87696069e-04 
 6.49920000e-01 -4.04360720e+00  1.89782422e-04 
 6.51920000e-01 -4.08024414e+00  1.91853252e-04 
 6.53920000e-01 -4.11623677e+00  1.93908376e-04 
 6.55920000e-01 -4.15157939e+00  1.95947593e-04 
 6.57920000e-01 -4.18626643e+00  1.97970727e-04 
 6.59920000e-01 -4.22029241e+00  1.99978000e-04 
 6.61920000e-01 -4.25365196e+00  2.01969564e-04 
 6.63920000e-01 -4.28633981e+00  2.03945090e-04 
 6.65920000e-01 -4.31835080e+00  2.05904283e-04 
 6.67920000e-01 -4.34967986e+00  2.07846897e-04 
 6.69920000e-01 -4.38032207e+00  2.09772668e-04 
 6.71920000e-01 -4.41027257e+00  2.11681349e-04 
 6.73920000e-01 -4.43952663e+00  2.13572632e-04 
 6.75920000e-01 -4.46807965e+00  2.15446225e-04 
 6.77920000e-01 -4.49592710e+00  2.17301848e-04 
 6.79920000e-01 -4.52306459e+00  2.19139200e-04 
 6.81920000e-01 -4.54948784e+00  2.20957970e-04 
 6.83920000e-01 -4.57519267e+00  2.22757806e-04 
 6.85920000e-01 -4.60017503e+00  2.24538416e-04 
 6.87920000e-01 -4.62443096e+00  2.26296243e-04 
 6.89920000e-01 -4.64795664e+00  2.28024765e-04 
 6.91920000e-01 -4.67074836e+00  2.29720587e-04 
 6.93920000e-01 -4.69280251e+00  2.31383121e-04 
 6.95920000e-01 -4.71411562e+00  2.33011706e-04 
 6.97920000e-01 -4.73468431e+00  2.34605756e-04 
 6.99920000e-01 -4.75450534e+00  2.36164636e-04 
 7.01920000e-01 -4.77357557e+00  2.37687786e-04 
 7.03920000e-01 -4.79189201e+00  2.39174632e-04 
 7.05920000e-01 -4.80945175e+00  2.40624686e-04 
 7.07920000e-01 -4.82625202e+00  2.42037448e-04 
 7.09920000e-01 -4.84229017e+00  2.43411634e-04 
 7.11920000e-01 -4.85756366e+00  2.44746260e-04 
 7.13920000e-01 -4.87207009e+00  2.46041276e-04 
 7.15920000e-01 -4.88580717e+00  2.47296288e-04 
 7.17920000e-01 -4.89877272e+00  2.48510954e-04 
 7.19920000e-01 -4.91096469e+00  2.49685011e-04 
 7.21920000e-01 -4.92238117e+00  2.50818159e-04 
 7.23920000e-01 -4.93302035e+00  2.51910245e-04 
 7.25920000e-01 -4.94288054e+00  2.52961067e-04 
 7.27920000e-01 -4.95196020e+00  2.53970567e-04 
 7.29920000e-01 -4.96025788e+00  2.54938683e-04 
 7.31920000e-01 -4.96777229e+00  2.55865373e-04 
 7.33920000e-01 -4.97450222e+00  2.56750711e-04 
 7.35920000e-01 -4.98044662e+00  2.57594786e-04 
 7.37920000e-01 -4.98560455e+00  2.58398036e-04 
 7.39920000e-01 -4.98997520e+00  2.59160850e-04 
 7.41920000e-01 -4.99355787e+00  2.59883358e-04 
 7.43920000e-01 -4.99635201e+00  2.60565831e-04 
 7.45920000e-01 -4.99835716e+00  2.61208579e-04 
 7.47920000e-01 -4.99957301e+00  2.61811940e-04 
 7.49920000e-01 -4.99999937e+00  2.62376093e-04 
 7.51920000e-01 -4.99963617e+00  2.62901257e-04 
 7.53920000e-01 -4.99848347e+00  2.63387889e-04 
 7.55920000e-01 -4.99654146e+00  2.63836849e-04 
 7.57920000e-01 -4.99381043e+00  2.64248886e-04 
 7.59920000e-01 -4.99029082e+00  2.64624294e-04 
 7.61920000e-01 -4.98598319e+00  2.64963574e-04 
 7.63920000e-01 -4.98088821e+00  2.65267229e-04 
 7.65920000e-01 -4.97500669e+00  2.65535762e-04 
 7.67920000e-01 -4.96833956e+00  2.65769662e-04 
 7.69920000e-01 -4.96088788e+00  2.65969432e-04 
 7.71920000e-01 -4.95265281e+00  2.66135538e-04 
 7.73920000e-01 -4.94363566e+00  2.66268488e-04 
 7.75920000e-01 -4.93383785e+00  2.66368689e-04 
 7.77920000e-01 -4.92326093e+00  2.66436618e-04 
 7.79920000e-01 -4.91190657e+00  2.66472668e-04 
 7.81920000e-01 -4.89977657e+00  2.66477205e-04 
 7.83920000e-01 -4.88687283e+00  2.66450582e-04 
 7.85920000e-01 -4.87319740e+00  2.66393138e-04 
 7.87920000e-01 -4.85875244e+00  2.66305140e-04 
 7.89920000e-01 -4.84354022e+00  2.66186816e-04 
 7.91920000e-01 -4.82756315e+00  2.66038360e-04 
 7.93920000e-01 -4.81082375e+00  2.65859957e-04 
